
T12EC 000:311 SEGGER J-Link V4.96d Log File (0001ms, 0275ms total)
T12EC 000:311 DLL Compiled: Jan 29 2015 11:45:37 (0001ms, 0275ms total)
T12EC 000:311 Logging started @ 2020-06-19 16:09 (0001ms, 0275ms total)
T12EC 000:312 JLINK_SetWarnOutHandler(...) (0000ms, 0275ms total)
T12EC 000:312 JLINK_OpenEx(...)
Firmware: J-Link ARM-OB STM32 compiled Aug 22 2012 19:52:04
Hardware: V7.00
S/N: 20160506
Feature(s): RDI,FlashDL,FlashBP,JFlash,GDBFull  returns O.K. (0271ms, 0546ms total)
T12EC 000:583 JLINK_SetErrorOutHandler(...) (0000ms, 0546ms total)
T12EC 000:583 JLINK_ExecCommand("ProjectFile = "E:\¼¤¹â²â¾à\LaserRangefinder_V6\Code\LaserRanging\USER\JLinkSettings.ini"", ...)  returns 0x00 (0002ms, 0548ms total)
T12EC 000:596 JLINK_ExecCommand("Device = STM32F103C8", ...)Device "STM32F103C8" selected.  returns 0x00 (0006ms, 0556ms total)
T12EC 000:603 JLINK_ExecCommand("DisableConnectionTimeout", ...)  returns 0x01 (0000ms, 0556ms total)
T12EC 000:603 JLINK_GetHardwareVersion()  returns 0x11170 (0000ms, 0556ms total)
T12EC 000:603 JLINK_GetDLLVersion()  returns 49604 (0000ms, 0556ms total)
T12EC 000:604 JLINK_GetFirmwareString(...) (0000ms, 0557ms total)
T12EC 000:619 JLINK_GetDLLVersion()  returns 49604 (0000ms, 0557ms total)
T12EC 000:619 JLINK_GetCompileDateTime() (0000ms, 0557ms total)
T12EC 000:623 JLINK_GetFirmwareString(...) (0000ms, 0557ms total)
T12EC 000:627 JLINK_GetHardwareVersion()  returns 0x11170 (0000ms, 0557ms total)
T12EC 000:642 JLINK_TIF_Select(JLINKARM_TIF_SWD)  returns 0x00 (0001ms, 0558ms total)
T12EC 000:643 JLINK_SetSpeed(10000) (0000ms, 0558ms total)
T12EC 000:643 JLINK_GetId() >0x108 TIF>Found SWD-DP with ID 0x1BA01477 >0x0D TIF> >0x28 TIF> >0x0D TIF> >0x28 TIF> >0x0D TIF> >0x21 TIF> >0x0D TIF> >0x28 TIF> >0x0D TIF> >0x28 TIF> >0x0D TIF> >0x28 TIF> >0x0D TIF> >0x21 TIF> >0x0D TIF> >0x21 TIF> >0x0D TIF> >0x28 TIF> >0x0D TIF> >0x21 TIF> >0x0D TIF> >0x21 TIF> >0x0D TIF> >0x28 TIF> >0x0D TIF> >0x28 TIF> >0x108 TIF>Found SWD-DP with ID 0x1BA01477 >0x0D TIF> >0x21 TIF> >0x0D TIF> >0x28 TIF> >0x0D TIF> >0x28 TIF> >0x0D TIF> >0x21 TIF> >0x0D TIF> >0x28 TIF>
 >0x0D TIF> >0x21 TIF> >0x0D TIF> >0x21 TIF> >0x0D TIF> >0x21 TIF> >0x0D TIF> >0x21 TIF> >0x0D TIF> >0x28 TIF> >0x0D TIF> >0x28 TIF> >0x0D TIF> >0x21 TIF> >0x0D TIF> >0x28 TIF> >0x0D TIF> >0x28 TIF> >0x0D TIF> >0x28 TIF> >0x0D TIF> >0x21 TIF> >0x0D TIF> >0x21 TIF> >0x0D TIF> >0x28 TIF> >0x0D TIF> >0x21 TIF> >0x0D TIF> >0x21 TIF>Found Cortex-M3 r1p1, Little endian. -- CPU_WriteMem(4 bytes @ 0xE0002000) -- CPU_ReadMem(4 bytes @ 0xE000EDF0) -- CPU_WriteMem(4 bytes @ 0xE000EDF0)
 -- CPU_ReadMem(4 bytes @ 0xE0002000)FPUnit: 6 code (BP) slots and 2 literal slots -- CPU_ReadMem(4 bytes @ 0xE000EDFC) -- CPU_WriteMem(4 bytes @ 0xE000EDFC) -- CPU_ReadMem(4 bytes @ 0xE0001000) -- CPU_WriteMem(4 bytes @ 0xE0001000) -- CPU_ReadMem(4 bytes @ 0xE000ED88) -- CPU_WriteMem(4 bytes @ 0xE000ED88) -- CPU_ReadMem(4 bytes @ 0xE000ED88) -- CPU_WriteMem(4 bytes @ 0xE000ED88) -- CPU_ReadMem(4 bytes @ 0xE00FF010)TPIU fitted. -- CPU_ReadMem(4 bytes @ 0xE00FF014) -- CPU_ReadMem(4 bytes @ 0xE00FF018)
 >0x0D TIF> >0x21 TIF>  returns 0x1BA01477 (0040ms, 0598ms total)
T12EC 000:683 JLINK_GetDLLVersion()  returns 49604 (0000ms, 0598ms total)
T12EC 000:683 JLINK_CORE_GetFound()  returns 0x30000FF (0000ms, 0598ms total)
T12EC 000:683 JLINK_GetDebugInfo(0x100) -- Value=0xE00FF003  returns 0x00 (0000ms, 0598ms total)
T12EC 000:685 JLINK_ReadMem (0xE00FF000, 0x0020 Bytes, ...) -- CPU is running -- CPU_ReadMem(32 bytes @ 0xE00FF000) - Data: 03 F0 F0 FF 03 20 F0 FF 03 30 F0 FF 03 10 F0 FF ...  returns 0x00 (0001ms, 0599ms total)
T12EC 000:686 JLINK_ReadMem (0xE000EFF0, 0x0010 Bytes, ...) -- CPU is running -- CPU_ReadMem(16 bytes @ 0xE000EFF0) - Data: 0D 00 00 00 E0 00 00 00 05 00 00 00 B1 00 00 00  returns 0x00 (0001ms, 0600ms total)
T12EC 000:687 JLINK_ReadMem (0xE000EFD0, 0x0020 Bytes, ...) -- CPU is running -- CPU_ReadMem(32 bytes @ 0xE000EFD0) - Data: 04 00 00 00 00 00 00 00 00 00 00 00 00 00 00 00 ...  returns 0x00 (0001ms, 0601ms total)
T12EC 000:688 JLINK_ReadMem (0xE0001FF0, 0x0010 Bytes, ...) -- CPU is running -- CPU_ReadMem(16 bytes @ 0xE0001FF0) - Data: 0D 00 00 00 E0 00 00 00 05 00 00 00 B1 00 00 00  returns 0x00 (0001ms, 0602ms total)
T12EC 000:689 JLINK_ReadMem (0xE0001FD0, 0x0020 Bytes, ...) -- CPU is running -- CPU_ReadMem(32 bytes @ 0xE0001FD0) - Data: 04 00 00 00 00 00 00 00 00 00 00 00 00 00 00 00 ...  returns 0x00 (0001ms, 0603ms total)
T12EC 000:690 JLINK_ReadMem (0xE0002FF0, 0x0010 Bytes, ...) -- CPU is running -- CPU_ReadMem(16 bytes @ 0xE0002FF0) - Data: 0D 00 00 00 E0 00 00 00 05 00 00 00 B1 00 00 00  returns 0x00 (0001ms, 0604ms total)
T12EC 000:691 JLINK_ReadMem (0xE0002FD0, 0x0020 Bytes, ...) -- CPU is running -- CPU_ReadMem(32 bytes @ 0xE0002FD0) - Data: 04 00 00 00 00 00 00 00 00 00 00 00 00 00 00 00 ...  returns 0x00 (0001ms, 0605ms total)
T12EC 000:692 JLINK_ReadMem (0xE0000FF0, 0x0010 Bytes, ...) -- CPU is running -- CPU_ReadMem(16 bytes @ 0xE0000FF0) - Data: 0D 00 00 00 E0 00 00 00 05 00 00 00 B1 00 00 00  returns 0x00 (0001ms, 0606ms total)
T12EC 000:693 JLINK_ReadMem (0xE0000FD0, 0x0020 Bytes, ...) -- CPU is running -- CPU_ReadMem(32 bytes @ 0xE0000FD0) - Data: 04 00 00 00 00 00 00 00 00 00 00 00 00 00 00 00 ...  returns 0x00 (0000ms, 0606ms total)
T12EC 000:693 JLINK_ReadMem (0xE0040FF0, 0x0010 Bytes, ...) -- CPU is running -- CPU_ReadMem(16 bytes @ 0xE0040FF0) - Data: 0D 00 00 00 90 00 00 00 05 00 00 00 B1 00 00 00  returns 0x00 (0001ms, 0607ms total)
T12EC 000:694 JLINK_ReadMem (0xE0040FD0, 0x0020 Bytes, ...) -- CPU is running -- CPU_ReadMem(32 bytes @ 0xE0040FD0) - Data: 04 00 00 00 00 00 00 00 00 00 00 00 00 00 00 00 ...  returns 0x00 (0001ms, 0608ms total)
T12EC 000:695 JLINK_ReadMemU32(0xE000ED00, 0x0001 Items, ...) -- CPU is running -- CPU_ReadMem(4 bytes @ 0xE000ED00) - Data: 31 C2 1F 41  returns 0x01 (0001ms, 0609ms total)
T12EC 000:696 JLINK_SetResetType(JLINKARM_RESET_TYPE_NORMAL)  returns JLINKARM_RESET_TYPE_NORMAL (0000ms, 0609ms total)
T12EC 000:696 JLINK_Reset() -- CPU is running -- CPU_WriteMem(4 bytes @ 0xE000EDF0) -- CPU is running -- CPU_WriteMem(4 bytes @ 0xE000EDFC) >0x35 TIF> -- CPU is running -- CPU_WriteMem(4 bytes @ 0xE000ED0C) -- CPU is running -- CPU_ReadMem(4 bytes @ 0xE000EDF0) -- CPU is running -- CPU_ReadMem(4 bytes @ 0xE000EDF0) -- CPU is running -- CPU_WriteMem(4 bytes @ 0xE000EDF0) -- CPU is running -- CPU_WriteMem(4 bytes @ 0xE000EDFC) -- CPU is running -- CPU_ReadMem(4 bytes @ 0xE000EDF0)
 -- CPU_WriteMem(4 bytes @ 0xE0002000) -- CPU_ReadMem(4 bytes @ 0xE000EDFC) -- CPU_ReadMem(4 bytes @ 0xE0001000) (0019ms, 0628ms total)
T12EC 000:715 JLINK_Halt()  returns 0x00 (0000ms, 0628ms total)
T12EC 000:715 JLINK_IsHalted()  returns TRUE (0000ms, 0628ms total)
T12EC 000:715 JLINK_ReadMemU32(0xE000EDF0, 0x0001 Items, ...) -- CPU_ReadMem(4 bytes @ 0xE000EDF0) - Data: 03 00 03 00  returns 0x01 (0001ms, 0629ms total)
T12EC 000:716 JLINK_WriteU32(0xE000EDF0, 0xA05F0003) -- CPU_WriteMem(4 bytes @ 0xE000EDF0)  returns 0x00 (0000ms, 0629ms total)
T12EC 000:716 JLINK_WriteU32(0xE000EDFC, 0x01000000) -- CPU_WriteMem(4 bytes @ 0xE000EDFC)  returns 0x00 (0001ms, 0630ms total)
T12EC 000:728 JLINK_GetHWStatus(...)  returns 0x00 (0000ms, 0630ms total)
T12EC 000:737 JLINK_GetNumBPUnits(Type = 0xFFFFFF00)  returns 0x06 (0000ms, 0630ms total)
T12EC 000:737 JLINK_GetNumBPUnits(Type = 0xF0)  returns 0x2000 (0000ms, 0630ms total)
T12EC 000:737 JLINK_GetNumWPUnits()  returns 0x04 (0000ms, 0630ms total)
T12EC 000:744 JLINK_GetSpeed()  returns 0xFA0 (0000ms, 0630ms total)
T12EC 000:749 JLINK_ReadMemU32(0xE000E004, 0x0001 Items, ...) -- CPU_ReadMem(4 bytes @ 0xE000E004) - Data: 01 00 00 00  returns 0x01 (0000ms, 0630ms total)
T12EC 000:749 JLINK_ReadMemU32(0xE000E004, 0x0001 Items, ...) -- CPU_ReadMem(4 bytes @ 0xE000E004) - Data: 01 00 00 00  returns 0x01 (0001ms, 0631ms total)
T12EC 000:750 JLINK_WriteMem(0xE0001000, 0x001C Bytes, ...) - Data: 01 00 00 00 00 00 00 00 00 00 00 00 00 00 00 00 ... -- CPU_WriteMem(28 bytes @ 0xE0001000)  returns 0x1C (0002ms, 0633ms total)
T12EC 000:752 JLINK_ReadMem (0xE0001000, 0x001C Bytes, ...) -- CPU_ReadMem(28 bytes @ 0xE0001000) - Data: 01 00 00 40 00 00 00 00 00 00 00 00 00 00 00 00 ...  returns 0x00 (0001ms, 0634ms total)
T12EC 000:753 JLINK_Halt()  returns 0x00 (0000ms, 0634ms total)
T12EC 000:753 JLINK_IsHalted()  returns TRUE (0000ms, 0634ms total)
T12EC 000:756 JLINK_WriteMem(0x20000000, 0x0164 Bytes, ...) - Data: 00 BE 0A E0 0D 78 2D 06 68 40 08 24 40 00 00 D3 ... -- CPU_WriteMem(356 bytes @ 0x20000000)  returns 0x164 (0006ms, 0640ms total)
T12EC 000:762 JLINK_WriteReg(R0, 0x08000000)  returns 0x00 (0000ms, 0640ms total)
T12EC 000:762 JLINK_WriteReg(R1, 0x00B71B00)  returns 0x00 (0000ms, 0640ms total)
T12EC 000:762 JLINK_WriteReg(R2, 0x00000001)  returns 0x00 (0000ms, 0640ms total)
T12EC 000:762 JLINK_WriteReg(R3, 0x00000000)  returns 0x00 (0000ms, 0640ms total)
T12EC 000:762 JLINK_WriteReg(R4, 0x00000000)  returns 0x00 (0000ms, 0640ms total)
T12EC 000:762 JLINK_WriteReg(R5, 0x00000000)  returns 0x00 (0000ms, 0640ms total)
T12EC 000:762 JLINK_WriteReg(R6, 0x00000000)  returns 0x00 (0000ms, 0640ms total)
T12EC 000:762 JLINK_WriteReg(R7, 0x00000000)  returns 0x00 (0000ms, 0640ms total)
T12EC 000:762 JLINK_WriteReg(R8, 0x00000000)  returns 0x00 (0000ms, 0640ms total)
T12EC 000:762 JLINK_WriteReg(R9, 0x20000160)  returns 0x00 (0000ms, 0640ms total)
T12EC 000:762 JLINK_WriteReg(R10, 0x00000000)  returns 0x00 (0000ms, 0640ms total)
T12EC 000:762 JLINK_WriteReg(R11, 0x00000000)  returns 0x00 (0000ms, 0640ms total)
T12EC 000:762 JLINK_WriteReg(R12, 0x00000000)  returns 0x00 (0001ms, 0641ms total)
T12EC 000:763 JLINK_WriteReg(R13 (SP), 0x20001000)  returns 0x00 (0000ms, 0641ms total)
T12EC 000:763 JLINK_WriteReg(R14, 0x20000001)  returns 0x00 (0000ms, 0641ms total)
T12EC 000:763 JLINK_WriteReg(R15 (PC), 0x20000038)  returns 0x00 (0000ms, 0641ms total)
T12EC 000:763 JLINK_WriteReg(XPSR, 0x01000000)  returns 0x00 (0000ms, 0641ms total)
T12EC 000:763 JLINK_WriteReg(MSP, 0x20001000)  returns 0x00 (0000ms, 0641ms total)
T12EC 000:763 JLINK_WriteReg(PSP, 0x20001000)  returns 0x00 (0000ms, 0641ms total)
T12EC 000:763 JLINK_WriteReg(CFBP, 0x00000000)  returns 0x00 (0000ms, 0641ms total)
T12EC 000:763 JLINK_SetBPEx(Addr = 0x20000000, Type = 0xFFFFFFF2) -- CPU_ReadMem(2 bytes @ 0x20000000)  returns 0x00000001 (0000ms, 0641ms total)
T12EC 000:763 JLINK_Go() -- CPU_WriteMem(2 bytes @ 0x20000000) -- CPU_WriteMem(4 bytes @ 0xE0002008) -- CPU_WriteMem(4 bytes @ 0xE000200C) -- CPU_WriteMem(4 bytes @ 0xE0002010) -- CPU_WriteMem(4 bytes @ 0xE0002014) -- CPU_WriteMem(4 bytes @ 0xE0002018) -- CPU_WriteMem(4 bytes @ 0xE000201C) -- CPU_WriteMem(4 bytes @ 0xE0001004) (0006ms, 0647ms total)
T12EC 000:769 JLINK_IsHalted() -- CPU_ReadMem(2 bytes @ 0x20000000)  returns TRUE (0004ms, 0651ms total)
T12EC 000:773 JLINK_ReadReg(R15 (PC))  returns 0x20000000 (0000ms, 0647ms total)
T12EC 000:773 JLINK_ClrBPEx(BPHandle = 0x00000001)  returns 0x00 (0000ms, 0647ms total)
T12EC 000:773 JLINK_ReadReg(R0)  returns 0x00000000 (0000ms, 0647ms total)
T12EC 000:773 JLINK_WriteReg(R0, 0x08000000)  returns 0x00 (0000ms, 0647ms total)
T12EC 000:773 JLINK_WriteReg(R1, 0x00B71B00)  returns 0x00 (0000ms, 0647ms total)
T12EC 000:773 JLINK_WriteReg(R2, 0x00000001)  returns 0x00 (0001ms, 0648ms total)
T12EC 000:774 JLINK_WriteReg(R3, 0x00000000)  returns 0x00 (0000ms, 0648ms total)
T12EC 000:774 JLINK_WriteReg(R4, 0x00000000)  returns 0x00 (0000ms, 0648ms total)
T12EC 000:774 JLINK_WriteReg(R5, 0x00000000)  returns 0x00 (0000ms, 0648ms total)
T12EC 000:774 JLINK_WriteReg(R6, 0x00000000)  returns 0x00 (0000ms, 0648ms total)
T12EC 000:774 JLINK_WriteReg(R7, 0x00000000)  returns 0x00 (0000ms, 0648ms total)
T12EC 000:774 JLINK_WriteReg(R8, 0x00000000)  returns 0x00 (0000ms, 0648ms total)
T12EC 000:774 JLINK_WriteReg(R9, 0x20000160)  returns 0x00 (0000ms, 0648ms total)
T12EC 000:774 JLINK_WriteReg(R10, 0x00000000)  returns 0x00 (0000ms, 0648ms total)
T12EC 000:774 JLINK_WriteReg(R11, 0x00000000)  returns 0x00 (0000ms, 0648ms total)
T12EC 000:774 JLINK_WriteReg(R12, 0x00000000)  returns 0x00 (0000ms, 0648ms total)
T12EC 000:774 JLINK_WriteReg(R13 (SP), 0x20001000)  returns 0x00 (0000ms, 0648ms total)
T12EC 000:774 JLINK_WriteReg(R14, 0x20000001)  returns 0x00 (0000ms, 0648ms total)
T12EC 000:774 JLINK_WriteReg(R15 (PC), 0x2000007C)  returns 0x00 (0000ms, 0648ms total)
T12EC 000:774 JLINK_WriteReg(XPSR, 0x01000000)  returns 0x00 (0000ms, 0648ms total)
T12EC 000:774 JLINK_WriteReg(MSP, 0x20001000)  returns 0x00 (0000ms, 0648ms total)
T12EC 000:774 JLINK_WriteReg(PSP, 0x20001000)  returns 0x00 (0000ms, 0648ms total)
T12EC 000:774 JLINK_WriteReg(CFBP, 0x00000000)  returns 0x00 (0000ms, 0648ms total)
T12EC 000:774 JLINK_SetBPEx(Addr = 0x20000000, Type = 0xFFFFFFF2)  returns 0x00000002 (0000ms, 0648ms total)
T12EC 000:774 JLINK_Go() (0002ms, 0650ms total)
T12EC 000:776 JLINK_IsHalted()  returns FALSE (0001ms, 0651ms total)
T12EC 000:845 JLINK_IsHalted() -- CPU_ReadMem(2 bytes @ 0x20000000)  returns TRUE (0004ms, 0654ms total)
T12EC 000:849 JLINK_ReadReg(R15 (PC))  returns 0x20000000 (0000ms, 0650ms total)
T12EC 000:849 JLINK_ClrBPEx(BPHandle = 0x00000002)  returns 0x00 (0000ms, 0650ms total)
T12EC 000:849 JLINK_ReadReg(R0)  returns 0x00000000 (0000ms, 0650ms total)
T12EC 000:901 JLINK_WriteReg(R0, 0x00000001)  returns 0x00 (0000ms, 0650ms total)
T12EC 000:901 JLINK_WriteReg(R1, 0x00B71B00)  returns 0x00 (0000ms, 0650ms total)
T12EC 000:901 JLINK_WriteReg(R2, 0x00000001)  returns 0x00 (0000ms, 0650ms total)
T12EC 000:901 JLINK_WriteReg(R3, 0x00000000)  returns 0x00 (0000ms, 0650ms total)
T12EC 000:901 JLINK_WriteReg(R4, 0x00000000)  returns 0x00 (0000ms, 0650ms total)
T12EC 000:901 JLINK_WriteReg(R5, 0x00000000)  returns 0x00 (0000ms, 0650ms total)
T12EC 000:902 JLINK_WriteReg(R6, 0x00000000)  returns 0x00 (0000ms, 0651ms total)
T12EC 000:902 JLINK_WriteReg(R7, 0x00000000)  returns 0x00 (0000ms, 0651ms total)
T12EC 000:902 JLINK_WriteReg(R8, 0x00000000)  returns 0x00 (0000ms, 0651ms total)
T12EC 000:902 JLINK_WriteReg(R9, 0x20000160)  returns 0x00 (0000ms, 0651ms total)
T12EC 000:902 JLINK_WriteReg(R10, 0x00000000)  returns 0x00 (0000ms, 0651ms total)
T12EC 000:902 JLINK_WriteReg(R11, 0x00000000)  returns 0x00 (0000ms, 0651ms total)
T12EC 000:902 JLINK_WriteReg(R12, 0x00000000)  returns 0x00 (0000ms, 0651ms total)
T12EC 000:902 JLINK_WriteReg(R13 (SP), 0x20001000)  returns 0x00 (0000ms, 0651ms total)
T12EC 000:902 JLINK_WriteReg(R14, 0x20000001)  returns 0x00 (0000ms, 0651ms total)
T12EC 000:902 JLINK_WriteReg(R15 (PC), 0x2000006A)  returns 0x00 (0000ms, 0651ms total)
T12EC 000:902 JLINK_WriteReg(XPSR, 0x01000000)  returns 0x00 (0000ms, 0651ms total)
T12EC 000:902 JLINK_WriteReg(MSP, 0x20001000)  returns 0x00 (0000ms, 0651ms total)
T12EC 000:902 JLINK_WriteReg(PSP, 0x20001000)  returns 0x00 (0000ms, 0651ms total)
T12EC 000:902 JLINK_WriteReg(CFBP, 0x00000000)  returns 0x00 (0000ms, 0651ms total)
T12EC 000:902 JLINK_SetBPEx(Addr = 0x20000000, Type = 0xFFFFFFF2)  returns 0x00000003 (0000ms, 0651ms total)
T12EC 000:902 JLINK_Go() (0002ms, 0653ms total)
T12EC 000:904 JLINK_IsHalted() -- CPU_ReadMem(2 bytes @ 0x20000000)  returns TRUE (0004ms, 0657ms total)
T12EC 000:908 JLINK_ReadReg(R15 (PC))  returns 0x20000000 (0000ms, 0653ms total)
T12EC 000:908 JLINK_ClrBPEx(BPHandle = 0x00000003)  returns 0x00 (0000ms, 0653ms total)
T12EC 000:908 JLINK_ReadReg(R0)  returns 0x00000000 (0000ms, 0653ms total)
T12EC 000:917 JLINK_WriteMem(0x20000000, 0x0164 Bytes, ...) - Data: 00 BE 0A E0 0D 78 2D 06 68 40 08 24 40 00 00 D3 ... -- CPU_WriteMem(356 bytes @ 0x20000000)  returns 0x164 (0005ms, 0658ms total)
T12EC 000:922 JLINK_WriteReg(R0, 0x08000000)  returns 0x00 (0000ms, 0658ms total)
T12EC 000:922 JLINK_WriteReg(R1, 0x00B71B00)  returns 0x00 (0000ms, 0658ms total)
T12EC 000:922 JLINK_WriteReg(R2, 0x00000002)  returns 0x00 (0000ms, 0658ms total)
T12EC 000:922 JLINK_WriteReg(R3, 0x00000000)  returns 0x00 (0000ms, 0658ms total)
T12EC 000:922 JLINK_WriteReg(R4, 0x00000000)  returns 0x00 (0000ms, 0658ms total)
T12EC 000:922 JLINK_WriteReg(R5, 0x00000000)  returns 0x00 (0000ms, 0658ms total)
T12EC 000:922 JLINK_WriteReg(R6, 0x00000000)  returns 0x00 (0001ms, 0659ms total)
T12EC 000:923 JLINK_WriteReg(R7, 0x00000000)  returns 0x00 (0000ms, 0659ms total)
T12EC 000:923 JLINK_WriteReg(R8, 0x00000000)  returns 0x00 (0000ms, 0659ms total)
T12EC 000:923 JLINK_WriteReg(R9, 0x20000160)  returns 0x00 (0000ms, 0659ms total)
T12EC 000:923 JLINK_WriteReg(R10, 0x00000000)  returns 0x00 (0000ms, 0659ms total)
T12EC 000:923 JLINK_WriteReg(R11, 0x00000000)  returns 0x00 (0000ms, 0659ms total)
T12EC 000:923 JLINK_WriteReg(R12, 0x00000000)  returns 0x00 (0000ms, 0659ms total)
T12EC 000:923 JLINK_WriteReg(R13 (SP), 0x20001000)  returns 0x00 (0000ms, 0659ms total)
T12EC 000:923 JLINK_WriteReg(R14, 0x20000001)  returns 0x00 (0000ms, 0659ms total)
T12EC 000:923 JLINK_WriteReg(R15 (PC), 0x20000038)  returns 0x00 (0000ms, 0659ms total)
T12EC 000:923 JLINK_WriteReg(XPSR, 0x01000000)  returns 0x00 (0000ms, 0659ms total)
T12EC 000:923 JLINK_WriteReg(MSP, 0x20001000)  returns 0x00 (0000ms, 0659ms total)
T12EC 000:923 JLINK_WriteReg(PSP, 0x20001000)  returns 0x00 (0000ms, 0659ms total)
T12EC 000:923 JLINK_WriteReg(CFBP, 0x00000000)  returns 0x00 (0000ms, 0659ms total)
T12EC 000:923 JLINK_SetBPEx(Addr = 0x20000000, Type = 0xFFFFFFF2) -- CPU_ReadMem(2 bytes @ 0x20000000)  returns 0x00000004 (0001ms, 0660ms total)
T12EC 000:924 JLINK_Go() -- CPU_WriteMem(2 bytes @ 0x20000000) (0003ms, 0663ms total)
T12EC 000:927 JLINK_IsHalted() -- CPU_ReadMem(2 bytes @ 0x20000000)  returns TRUE (0004ms, 0667ms total)
T12EC 000:931 JLINK_ReadReg(R15 (PC))  returns 0x20000000 (0000ms, 0663ms total)
T12EC 000:931 JLINK_ClrBPEx(BPHandle = 0x00000004)  returns 0x00 (0000ms, 0663ms total)
T12EC 000:931 JLINK_ReadReg(R0)  returns 0x00000000 (0000ms, 0663ms total)
T12EC 000:931 JLINK_WriteMem(0x20000164, 0x0400 Bytes, ...) - Data: 78 25 00 20 9D 1E 00 08 29 10 00 08 2B 10 00 08 ... -- CPU_WriteMem(1024 bytes @ 0x20000164)  returns 0x400 (0013ms, 0676ms total)
T12EC 000:944 JLINK_WriteReg(R0, 0x08000000)  returns 0x00 (0000ms, 0676ms total)
T12EC 000:944 JLINK_WriteReg(R1, 0x00000400)  returns 0x00 (0000ms, 0676ms total)
T12EC 000:944 JLINK_WriteReg(R2, 0x20000164)  returns 0x00 (0000ms, 0676ms total)
T12EC 000:944 JLINK_WriteReg(R3, 0x00000000)  returns 0x00 (0000ms, 0676ms total)
T12EC 000:944 JLINK_WriteReg(R4, 0x00000000)  returns 0x00 (0000ms, 0676ms total)
T12EC 000:944 JLINK_WriteReg(R5, 0x00000000)  returns 0x00 (0000ms, 0676ms total)
T12EC 000:945 JLINK_WriteReg(R6, 0x00000000)  returns 0x00 (0000ms, 0676ms total)
T12EC 000:945 JLINK_WriteReg(R7, 0x00000000)  returns 0x00 (0000ms, 0676ms total)
T12EC 000:945 JLINK_WriteReg(R8, 0x00000000)  returns 0x00 (0000ms, 0676ms total)
T12EC 000:945 JLINK_WriteReg(R9, 0x20000160)  returns 0x00 (0000ms, 0676ms total)
T12EC 000:945 JLINK_WriteReg(R10, 0x00000000)  returns 0x00 (0000ms, 0676ms total)
T12EC 000:945 JLINK_WriteReg(R11, 0x00000000)  returns 0x00 (0000ms, 0676ms total)
T12EC 000:945 JLINK_WriteReg(R12, 0x00000000)  returns 0x00 (0000ms, 0676ms total)
T12EC 000:945 JLINK_WriteReg(R13 (SP), 0x20001000)  returns 0x00 (0000ms, 0676ms total)
T12EC 000:945 JLINK_WriteReg(R14, 0x20000001)  returns 0x00 (0000ms, 0676ms total)
T12EC 000:945 JLINK_WriteReg(R15 (PC), 0x200000F4)  returns 0x00 (0000ms, 0676ms total)
T12EC 000:945 JLINK_WriteReg(XPSR, 0x01000000)  returns 0x00 (0000ms, 0676ms total)
T12EC 000:945 JLINK_WriteReg(MSP, 0x20001000)  returns 0x00 (0000ms, 0676ms total)
T12EC 000:945 JLINK_WriteReg(PSP, 0x20001000)  returns 0x00 (0000ms, 0676ms total)
T12EC 000:945 JLINK_WriteReg(CFBP, 0x00000000)  returns 0x00 (0000ms, 0676ms total)
T12EC 000:945 JLINK_SetBPEx(Addr = 0x20000000, Type = 0xFFFFFFF2)  returns 0x00000005 (0000ms, 0676ms total)
T12EC 000:946 JLINK_Go() (0002ms, 0678ms total)
T12EC 000:948 JLINK_IsHalted()  returns FALSE (0000ms, 0678ms total)
T12EC 000:968 JLINK_IsHalted()  returns FALSE (0000ms, 0678ms total)
T12EC 000:970 JLINK_IsHalted()  returns FALSE (0000ms, 0678ms total)
T12EC 000:972 JLINK_IsHalted()  returns FALSE (0000ms, 0678ms total)
T12EC 000:974 JLINK_IsHalted()  returns FALSE (0000ms, 0678ms total)
T12EC 000:976 JLINK_IsHalted()  returns FALSE (0000ms, 0678ms total)
T12EC 000:978 JLINK_IsHalted()  returns FALSE (0001ms, 0679ms total)
T12EC 000:980 JLINK_IsHalted() -- CPU_ReadMem(2 bytes @ 0x20000000)  returns TRUE (0004ms, 0682ms total)
T12EC 000:984 JLINK_ReadReg(R15 (PC))  returns 0x20000000 (0000ms, 0678ms total)
T12EC 000:984 JLINK_ClrBPEx(BPHandle = 0x00000005)  returns 0x00 (0000ms, 0678ms total)
T12EC 000:984 JLINK_ReadReg(R0)  returns 0x00000000 (0000ms, 0678ms total)
T12EC 000:985 JLINK_WriteMem(0x20000164, 0x0400 Bytes, ...) - Data: 84 00 00 28 4C D1 00 24 0D E0 01 A8 00 EB 04 10 ... -- CPU_WriteMem(1024 bytes @ 0x20000164)  returns 0x400 (0012ms, 0690ms total)
T12EC 000:997 JLINK_WriteReg(R0, 0x08000400)  returns 0x00 (0000ms, 0690ms total)
T12EC 000:997 JLINK_WriteReg(R1, 0x00000400)  returns 0x00 (0000ms, 0690ms total)
T12EC 000:997 JLINK_WriteReg(R2, 0x20000164)  returns 0x00 (0000ms, 0690ms total)
T12EC 000:998 JLINK_WriteReg(R3, 0x00000000)  returns 0x00 (0000ms, 0691ms total)
T12EC 000:998 JLINK_WriteReg(R4, 0x00000000)  returns 0x00 (0000ms, 0691ms total)
T12EC 000:998 JLINK_WriteReg(R5, 0x00000000)  returns 0x00 (0000ms, 0691ms total)
T12EC 000:998 JLINK_WriteReg(R6, 0x00000000)  returns 0x00 (0000ms, 0691ms total)
T12EC 000:998 JLINK_WriteReg(R7, 0x00000000)  returns 0x00 (0000ms, 0691ms total)
T12EC 000:998 JLINK_WriteReg(R8, 0x00000000)  returns 0x00 (0000ms, 0691ms total)
T12EC 000:998 JLINK_WriteReg(R9, 0x20000160)  returns 0x00 (0000ms, 0691ms total)
T12EC 000:998 JLINK_WriteReg(R10, 0x00000000)  returns 0x00 (0000ms, 0691ms total)
T12EC 000:998 JLINK_WriteReg(R11, 0x00000000)  returns 0x00 (0000ms, 0691ms total)
T12EC 000:998 JLINK_WriteReg(R12, 0x00000000)  returns 0x00 (0000ms, 0691ms total)
T12EC 000:998 JLINK_WriteReg(R13 (SP), 0x20001000)  returns 0x00 (0000ms, 0691ms total)
T12EC 000:998 JLINK_WriteReg(R14, 0x20000001)  returns 0x00 (0000ms, 0691ms total)
T12EC 000:998 JLINK_WriteReg(R15 (PC), 0x200000F4)  returns 0x00 (0000ms, 0691ms total)
T12EC 000:998 JLINK_WriteReg(XPSR, 0x01000000)  returns 0x00 (0000ms, 0691ms total)
T12EC 000:998 JLINK_WriteReg(MSP, 0x20001000)  returns 0x00 (0000ms, 0691ms total)
T12EC 000:998 JLINK_WriteReg(PSP, 0x20001000)  returns 0x00 (0000ms, 0691ms total)
T12EC 000:998 JLINK_WriteReg(CFBP, 0x00000000)  returns 0x00 (0000ms, 0691ms total)
T12EC 000:998 JLINK_SetBPEx(Addr = 0x20000000, Type = 0xFFFFFFF2)  returns 0x00000006 (0001ms, 0692ms total)
T12EC 000:999 JLINK_Go() (0002ms, 0694ms total)
T12EC 001:001 JLINK_IsHalted()  returns FALSE (0001ms, 0695ms total)
T12EC 001:015 JLINK_IsHalted()  returns FALSE (0000ms, 0694ms total)
T12EC 001:017 JLINK_IsHalted()  returns FALSE (0000ms, 0694ms total)
T12EC 001:019 JLINK_IsHalted()  returns FALSE (0000ms, 0694ms total)
T12EC 001:021 JLINK_IsHalted()  returns FALSE (0000ms, 0694ms total)
T12EC 001:023 JLINK_IsHalted()  returns FALSE (0000ms, 0694ms total)
T12EC 001:025 JLINK_IsHalted()  returns FALSE (0000ms, 0694ms total)
T12EC 001:027 JLINK_IsHalted()  returns FALSE (0000ms, 0694ms total)
T12EC 001:029 JLINK_IsHalted()  returns FALSE (0000ms, 0694ms total)
T12EC 001:031 JLINK_IsHalted()  returns FALSE (0000ms, 0694ms total)
T12EC 001:033 JLINK_IsHalted() -- CPU_ReadMem(2 bytes @ 0x20000000)  returns TRUE (0004ms, 0698ms total)
T12EC 001:037 JLINK_ReadReg(R15 (PC))  returns 0x20000000 (0000ms, 0694ms total)
T12EC 001:037 JLINK_ClrBPEx(BPHandle = 0x00000006)  returns 0x00 (0000ms, 0694ms total)
T12EC 001:037 JLINK_ReadReg(R0)  returns 0x00000000 (0000ms, 0694ms total)
T12EC 001:038 JLINK_WriteMem(0x20000164, 0x0400 Bytes, ...) - Data: A1 49 08 70 04 F0 DE FE 14 90 A0 48 9E 49 09 78 ... -- CPU_WriteMem(1024 bytes @ 0x20000164)  returns 0x400 (0012ms, 0706ms total)
T12EC 001:050 JLINK_WriteReg(R0, 0x08000800)  returns 0x00 (0001ms, 0707ms total)
T12EC 001:051 JLINK_WriteReg(R1, 0x00000400)  returns 0x00 (0000ms, 0707ms total)
T12EC 001:051 JLINK_WriteReg(R2, 0x20000164)  returns 0x00 (0000ms, 0707ms total)
T12EC 001:051 JLINK_WriteReg(R3, 0x00000000)  returns 0x00 (0000ms, 0707ms total)
T12EC 001:051 JLINK_WriteReg(R4, 0x00000000)  returns 0x00 (0000ms, 0707ms total)
T12EC 001:051 JLINK_WriteReg(R5, 0x00000000)  returns 0x00 (0000ms, 0707ms total)
T12EC 001:051 JLINK_WriteReg(R6, 0x00000000)  returns 0x00 (0000ms, 0707ms total)
T12EC 001:051 JLINK_WriteReg(R7, 0x00000000)  returns 0x00 (0000ms, 0707ms total)
T12EC 001:051 JLINK_WriteReg(R8, 0x00000000)  returns 0x00 (0000ms, 0707ms total)
T12EC 001:051 JLINK_WriteReg(R9, 0x20000160)  returns 0x00 (0000ms, 0707ms total)
T12EC 001:051 JLINK_WriteReg(R10, 0x00000000)  returns 0x00 (0000ms, 0707ms total)
T12EC 001:051 JLINK_WriteReg(R11, 0x00000000)  returns 0x00 (0000ms, 0707ms total)
T12EC 001:051 JLINK_WriteReg(R12, 0x00000000)  returns 0x00 (0000ms, 0707ms total)
T12EC 001:051 JLINK_WriteReg(R13 (SP), 0x20001000)  returns 0x00 (0000ms, 0707ms total)
T12EC 001:051 JLINK_WriteReg(R14, 0x20000001)  returns 0x00 (0000ms, 0707ms total)
T12EC 001:051 JLINK_WriteReg(R15 (PC), 0x200000F4)  returns 0x00 (0000ms, 0707ms total)
T12EC 001:051 JLINK_WriteReg(XPSR, 0x01000000)  returns 0x00 (0000ms, 0707ms total)
T12EC 001:051 JLINK_WriteReg(MSP, 0x20001000)  returns 0x00 (0000ms, 0707ms total)
T12EC 001:051 JLINK_WriteReg(PSP, 0x20001000)  returns 0x00 (0000ms, 0707ms total)
T12EC 001:051 JLINK_WriteReg(CFBP, 0x00000000)  returns 0x00 (0000ms, 0707ms total)
T12EC 001:051 JLINK_SetBPEx(Addr = 0x20000000, Type = 0xFFFFFFF2)  returns 0x00000007 (0000ms, 0707ms total)
T12EC 001:051 JLINK_Go() (0003ms, 0710ms total)
T12EC 001:054 JLINK_IsHalted()  returns FALSE (0000ms, 0710ms total)
T12EC 001:056 JLINK_IsHalted()  returns FALSE (0000ms, 0710ms total)
T12EC 001:059 JLINK_IsHalted()  returns FALSE (0000ms, 0710ms total)
T12EC 001:061 JLINK_IsHalted()  returns FALSE (0001ms, 0711ms total)
T12EC 001:063 JLINK_IsHalted()  returns FALSE (0000ms, 0710ms total)
T12EC 001:065 JLINK_IsHalted()  returns FALSE (0000ms, 0710ms total)
T12EC 001:067 JLINK_IsHalted()  returns FALSE (0000ms, 0710ms total)
T12EC 001:069 JLINK_IsHalted()  returns FALSE (0000ms, 0710ms total)
T12EC 001:071 JLINK_IsHalted()  returns FALSE (0001ms, 0711ms total)
T12EC 001:073 JLINK_IsHalted()  returns FALSE (0000ms, 0710ms total)
T12EC 001:076 JLINK_IsHalted()  returns FALSE (0000ms, 0710ms total)
T12EC 001:078 JLINK_IsHalted()  returns FALSE (0000ms, 0710ms total)
T12EC 001:080 JLINK_IsHalted()  returns FALSE (0001ms, 0711ms total)
T12EC 001:082 JLINK_IsHalted()  returns FALSE (0000ms, 0710ms total)
T12EC 001:084 JLINK_IsHalted()  returns FALSE (0000ms, 0711ms total)
T12EC 001:086 JLINK_IsHalted() -- CPU_ReadMem(2 bytes @ 0x20000000)  returns TRUE (0004ms, 0715ms total)
T12EC 001:090 JLINK_ReadReg(R15 (PC))  returns 0x20000000 (0000ms, 0711ms total)
T12EC 001:090 JLINK_ClrBPEx(BPHandle = 0x00000007)  returns 0x00 (0000ms, 0711ms total)
T12EC 001:090 JLINK_ReadReg(R0)  returns 0x00000000 (0000ms, 0711ms total)
T12EC 001:091 JLINK_WriteMem(0x20000164, 0x0400 Bytes, ...) - Data: 9D F8 40 10 C8 48 01 F0 93 FE 00 BF 40 21 C6 48 ... -- CPU_WriteMem(1024 bytes @ 0x20000164)  returns 0x400 (0013ms, 0724ms total)
T12EC 001:104 JLINK_WriteReg(R0, 0x08000C00)  returns 0x00 (0000ms, 0724ms total)
T12EC 001:104 JLINK_WriteReg(R1, 0x00000400)  returns 0x00 (0000ms, 0724ms total)
T12EC 001:104 JLINK_WriteReg(R2, 0x20000164)  returns 0x00 (0000ms, 0724ms total)
T12EC 001:104 JLINK_WriteReg(R3, 0x00000000)  returns 0x00 (0000ms, 0724ms total)
T12EC 001:104 JLINK_WriteReg(R4, 0x00000000)  returns 0x00 (0000ms, 0724ms total)
T12EC 001:104 JLINK_WriteReg(R5, 0x00000000)  returns 0x00 (0000ms, 0724ms total)
T12EC 001:104 JLINK_WriteReg(R6, 0x00000000)  returns 0x00 (0000ms, 0724ms total)
T12EC 001:104 JLINK_WriteReg(R7, 0x00000000)  returns 0x00 (0000ms, 0724ms total)
T12EC 001:104 JLINK_WriteReg(R8, 0x00000000)  returns 0x00 (0000ms, 0724ms total)
T12EC 001:104 JLINK_WriteReg(R9, 0x20000160)  returns 0x00 (0000ms, 0724ms total)
T12EC 001:104 JLINK_WriteReg(R10, 0x00000000)  returns 0x00 (0000ms, 0724ms total)
T12EC 001:104 JLINK_WriteReg(R11, 0x00000000)  returns 0x00 (0000ms, 0724ms total)
T12EC 001:104 JLINK_WriteReg(R12, 0x00000000)  returns 0x00 (0000ms, 0724ms total)
T12EC 001:104 JLINK_WriteReg(R13 (SP), 0x20001000)  returns 0x00 (0000ms, 0724ms total)
T12EC 001:104 JLINK_WriteReg(R14, 0x20000001)  returns 0x00 (0000ms, 0724ms total)
T12EC 001:104 JLINK_WriteReg(R15 (PC), 0x200000F4)  returns 0x00 (0000ms, 0724ms total)
T12EC 001:104 JLINK_WriteReg(XPSR, 0x01000000)  returns 0x00 (0000ms, 0724ms total)
T12EC 001:104 JLINK_WriteReg(MSP, 0x20001000)  returns 0x00 (0001ms, 0725ms total)
T12EC 001:105 JLINK_WriteReg(PSP, 0x20001000)  returns 0x00 (0000ms, 0725ms total)
T12EC 001:105 JLINK_WriteReg(CFBP, 0x00000000)  returns 0x00 (0000ms, 0725ms total)
T12EC 001:105 JLINK_SetBPEx(Addr = 0x20000000, Type = 0xFFFFFFF2)  returns 0x00000008 (0000ms, 0725ms total)
T12EC 001:105 JLINK_Go() (0002ms, 0727ms total)
T12EC 001:107 JLINK_IsHalted()  returns FALSE (0000ms, 0727ms total)
T12EC 001:121 JLINK_IsHalted()  returns FALSE (0001ms, 0728ms total)
T12EC 001:124 JLINK_IsHalted()  returns FALSE (0000ms, 0727ms total)
T12EC 001:126 JLINK_IsHalted()  returns FALSE (0000ms, 0727ms total)
T12EC 001:128 JLINK_IsHalted()  returns FALSE (0001ms, 0728ms total)
T12EC 001:132 JLINK_IsHalted()  returns FALSE (0000ms, 0727ms total)
T12EC 001:134 JLINK_IsHalted()  returns FALSE (0000ms, 0727ms total)
T12EC 001:136 JLINK_IsHalted()  returns FALSE (0000ms, 0727ms total)
T12EC 001:138 JLINK_IsHalted() -- CPU_ReadMem(2 bytes @ 0x20000000)  returns TRUE (0003ms, 0730ms total)
T12EC 001:141 JLINK_ReadReg(R15 (PC))  returns 0x20000000 (0000ms, 0727ms total)
T12EC 001:141 JLINK_ClrBPEx(BPHandle = 0x00000008)  returns 0x00 (0000ms, 0727ms total)
T12EC 001:141 JLINK_ReadReg(R0)  returns 0x00000000 (0000ms, 0727ms total)
T12EC 001:143 JLINK_WriteMem(0x20000164, 0x0400 Bytes, ...) - Data: 29 46 38 46 FF F7 EF FF 32 46 61 1C 38 46 FF F7 ... -- CPU_WriteMem(1024 bytes @ 0x20000164)  returns 0x400 (0011ms, 0738ms total)
T12EC 001:154 JLINK_WriteReg(R0, 0x08001000)  returns 0x00 (0000ms, 0738ms total)
T12EC 001:154 JLINK_WriteReg(R1, 0x00000400)  returns 0x00 (0000ms, 0738ms total)
T12EC 001:154 JLINK_WriteReg(R2, 0x20000164)  returns 0x00 (0000ms, 0738ms total)
T12EC 001:154 JLINK_WriteReg(R3, 0x00000000)  returns 0x00 (0000ms, 0738ms total)
T12EC 001:154 JLINK_WriteReg(R4, 0x00000000)  returns 0x00 (0000ms, 0738ms total)
T12EC 001:154 JLINK_WriteReg(R5, 0x00000000)  returns 0x00 (0000ms, 0738ms total)
T12EC 001:155 JLINK_WriteReg(R6, 0x00000000)  returns 0x00 (0000ms, 0738ms total)
T12EC 001:155 JLINK_WriteReg(R7, 0x00000000)  returns 0x00 (0000ms, 0738ms total)
T12EC 001:155 JLINK_WriteReg(R8, 0x00000000)  returns 0x00 (0000ms, 0738ms total)
T12EC 001:155 JLINK_WriteReg(R9, 0x20000160)  returns 0x00 (0000ms, 0738ms total)
T12EC 001:155 JLINK_WriteReg(R10, 0x00000000)  returns 0x00 (0000ms, 0738ms total)
T12EC 001:155 JLINK_WriteReg(R11, 0x00000000)  returns 0x00 (0000ms, 0738ms total)
T12EC 001:155 JLINK_WriteReg(R12, 0x00000000)  returns 0x00 (0000ms, 0738ms total)
T12EC 001:155 JLINK_WriteReg(R13 (SP), 0x20001000)  returns 0x00 (0000ms, 0738ms total)
T12EC 001:155 JLINK_WriteReg(R14, 0x20000001)  returns 0x00 (0000ms, 0738ms total)
T12EC 001:155 JLINK_WriteReg(R15 (PC), 0x200000F4)  returns 0x00 (0000ms, 0738ms total)
T12EC 001:155 JLINK_WriteReg(XPSR, 0x01000000)  returns 0x00 (0000ms, 0738ms total)
T12EC 001:155 JLINK_WriteReg(MSP, 0x20001000)  returns 0x00 (0000ms, 0738ms total)
T12EC 001:155 JLINK_WriteReg(PSP, 0x20001000)  returns 0x00 (0000ms, 0738ms total)
T12EC 001:155 JLINK_WriteReg(CFBP, 0x00000000)  returns 0x00 (0000ms, 0738ms total)
T12EC 001:155 JLINK_SetBPEx(Addr = 0x20000000, Type = 0xFFFFFFF2)  returns 0x00000009 (0000ms, 0738ms total)
T12EC 001:155 JLINK_Go() (0002ms, 0740ms total)
T12EC 001:157 JLINK_IsHalted()  returns FALSE (0001ms, 0741ms total)
T12EC 001:161 JLINK_IsHalted()  returns FALSE (0000ms, 0740ms total)
T12EC 001:162 JLINK_IsHalted()  returns FALSE (0000ms, 0740ms total)
T12EC 001:164 JLINK_IsHalted()  returns FALSE (0000ms, 0740ms total)
T12EC 001:166 JLINK_IsHalted()  returns FALSE (0000ms, 0740ms total)
T12EC 001:168 JLINK_IsHalted()  returns FALSE (0000ms, 0740ms total)
T12EC 001:170 JLINK_IsHalted()  returns FALSE (0000ms, 0740ms total)
T12EC 001:172 JLINK_IsHalted()  returns FALSE (0000ms, 0740ms total)
T12EC 001:174 JLINK_IsHalted()  returns FALSE (0000ms, 0740ms total)
T12EC 001:176 JLINK_IsHalted()  returns FALSE (0000ms, 0740ms total)
T12EC 001:178 JLINK_IsHalted()  returns FALSE (0000ms, 0740ms total)
T12EC 001:180 JLINK_IsHalted()  returns FALSE (0000ms, 0740ms total)
T12EC 001:182 JLINK_IsHalted()  returns FALSE (0000ms, 0740ms total)
T12EC 001:184 JLINK_IsHalted()  returns FALSE (0000ms, 0740ms total)
T12EC 001:186 JLINK_IsHalted()  returns FALSE (0000ms, 0740ms total)
T12EC 001:188 JLINK_IsHalted()  returns FALSE (0000ms, 0740ms total)
T12EC 001:190 JLINK_IsHalted() -- CPU_ReadMem(2 bytes @ 0x20000000)  returns TRUE (0003ms, 0743ms total)
T12EC 001:193 JLINK_ReadReg(R15 (PC))  returns 0x20000000 (0001ms, 0741ms total)
T12EC 001:194 JLINK_ClrBPEx(BPHandle = 0x00000009)  returns 0x00 (0000ms, 0741ms total)
T12EC 001:194 JLINK_ReadReg(R0)  returns 0x00000000 (0000ms, 0741ms total)
T12EC 001:194 JLINK_WriteMem(0x20000164, 0x0400 Bytes, ...) - Data: 77 49 C1 F8 A8 01 18 20 FF F7 49 FF 38 BD F8 B5 ... -- CPU_WriteMem(1024 bytes @ 0x20000164)  returns 0x400 (0013ms, 0754ms total)
T12EC 001:207 JLINK_WriteReg(R0, 0x08001400)  returns 0x00 (0000ms, 0754ms total)
T12EC 001:207 JLINK_WriteReg(R1, 0x00000400)  returns 0x00 (0000ms, 0754ms total)
T12EC 001:207 JLINK_WriteReg(R2, 0x20000164)  returns 0x00 (0000ms, 0754ms total)
T12EC 001:207 JLINK_WriteReg(R3, 0x00000000)  returns 0x00 (0000ms, 0754ms total)
T12EC 001:207 JLINK_WriteReg(R4, 0x00000000)  returns 0x00 (0000ms, 0754ms total)
T12EC 001:207 JLINK_WriteReg(R5, 0x00000000)  returns 0x00 (0000ms, 0754ms total)
T12EC 001:207 JLINK_WriteReg(R6, 0x00000000)  returns 0x00 (0000ms, 0754ms total)
T12EC 001:207 JLINK_WriteReg(R7, 0x00000000)  returns 0x00 (0000ms, 0754ms total)
T12EC 001:207 JLINK_WriteReg(R8, 0x00000000)  returns 0x00 (0000ms, 0754ms total)
T12EC 001:207 JLINK_WriteReg(R9, 0x20000160)  returns 0x00 (0000ms, 0754ms total)
T12EC 001:207 JLINK_WriteReg(R10, 0x00000000)  returns 0x00 (0000ms, 0754ms total)
T12EC 001:207 JLINK_WriteReg(R11, 0x00000000)  returns 0x00 (0000ms, 0754ms total)
T12EC 001:208 JLINK_WriteReg(R12, 0x00000000)  returns 0x00 (0000ms, 0755ms total)
T12EC 001:208 JLINK_WriteReg(R13 (SP), 0x20001000)  returns 0x00 (0000ms, 0755ms total)
T12EC 001:208 JLINK_WriteReg(R14, 0x20000001)  returns 0x00 (0000ms, 0755ms total)
T12EC 001:208 JLINK_WriteReg(R15 (PC), 0x200000F4)  returns 0x00 (0000ms, 0755ms total)
T12EC 001:208 JLINK_WriteReg(XPSR, 0x01000000)  returns 0x00 (0000ms, 0755ms total)
T12EC 001:208 JLINK_WriteReg(MSP, 0x20001000)  returns 0x00 (0000ms, 0755ms total)
T12EC 001:208 JLINK_WriteReg(PSP, 0x20001000)  returns 0x00 (0000ms, 0755ms total)
T12EC 001:208 JLINK_WriteReg(CFBP, 0x00000000)  returns 0x00 (0000ms, 0755ms total)
T12EC 001:208 JLINK_SetBPEx(Addr = 0x20000000, Type = 0xFFFFFFF2)  returns 0x0000000A (0000ms, 0755ms total)
T12EC 001:208 JLINK_Go() (0002ms, 0757ms total)
T12EC 001:211 JLINK_IsHalted()  returns FALSE (0000ms, 0758ms total)
T12EC 001:213 JLINK_IsHalted()  returns FALSE (0001ms, 0759ms total)
T12EC 001:215 JLINK_IsHalted()  returns FALSE (0000ms, 0758ms total)
T12EC 001:217 JLINK_IsHalted()  returns FALSE (0000ms, 0758ms total)
T12EC 001:232 JLINK_IsHalted()  returns FALSE (0000ms, 0758ms total)
T12EC 001:234 JLINK_IsHalted()  returns FALSE (0001ms, 0759ms total)
T12EC 001:236 JLINK_IsHalted()  returns FALSE (0000ms, 0758ms total)
T12EC 001:238 JLINK_IsHalted()  returns FALSE (0001ms, 0759ms total)
T12EC 001:240 JLINK_IsHalted()  returns FALSE (0001ms, 0759ms total)
T12EC 001:242 JLINK_IsHalted() -- CPU_ReadMem(2 bytes @ 0x20000000)  returns TRUE (0004ms, 0762ms total)
T12EC 001:246 JLINK_ReadReg(R15 (PC))  returns 0x20000000 (0000ms, 0758ms total)
T12EC 001:246 JLINK_ClrBPEx(BPHandle = 0x0000000A)  returns 0x00 (0000ms, 0758ms total)
T12EC 001:246 JLINK_ReadReg(R0)  returns 0x00000000 (0000ms, 0758ms total)
T12EC 001:247 JLINK_WriteMem(0x20000164, 0x0400 Bytes, ...) - Data: 00 BF 47 EA 05 00 46 EA 00 27 01 20 47 49 08 60 ... -- CPU_WriteMem(1024 bytes @ 0x20000164)  returns 0x400 (0013ms, 0771ms total)
T12EC 001:260 JLINK_WriteReg(R0, 0x08001800)  returns 0x00 (0000ms, 0771ms total)
T12EC 001:260 JLINK_WriteReg(R1, 0x00000400)  returns 0x00 (0000ms, 0771ms total)
T12EC 001:260 JLINK_WriteReg(R2, 0x20000164)  returns 0x00 (0000ms, 0771ms total)
T12EC 001:260 JLINK_WriteReg(R3, 0x00000000)  returns 0x00 (0000ms, 0771ms total)
T12EC 001:260 JLINK_WriteReg(R4, 0x00000000)  returns 0x00 (0000ms, 0771ms total)
T12EC 001:260 JLINK_WriteReg(R5, 0x00000000)  returns 0x00 (0000ms, 0771ms total)
T12EC 001:260 JLINK_WriteReg(R6, 0x00000000)  returns 0x00 (0000ms, 0771ms total)
T12EC 001:260 JLINK_WriteReg(R7, 0x00000000)  returns 0x00 (0000ms, 0771ms total)
T12EC 001:260 JLINK_WriteReg(R8, 0x00000000)  returns 0x00 (0000ms, 0771ms total)
T12EC 001:260 JLINK_WriteReg(R9, 0x20000160)  returns 0x00 (0000ms, 0771ms total)
T12EC 001:260 JLINK_WriteReg(R10, 0x00000000)  returns 0x00 (0000ms, 0771ms total)
T12EC 001:260 JLINK_WriteReg(R11, 0x00000000)  returns 0x00 (0000ms, 0771ms total)
T12EC 001:260 JLINK_WriteReg(R12, 0x00000000)  returns 0x00 (0000ms, 0771ms total)
T12EC 001:260 JLINK_WriteReg(R13 (SP), 0x20001000)  returns 0x00 (0000ms, 0771ms total)
T12EC 001:260 JLINK_WriteReg(R14, 0x20000001)  returns 0x00 (0000ms, 0771ms total)
T12EC 001:261 JLINK_WriteReg(R15 (PC), 0x200000F4)  returns 0x00 (0000ms, 0771ms total)
T12EC 001:261 JLINK_WriteReg(XPSR, 0x01000000)  returns 0x00 (0000ms, 0771ms total)
T12EC 001:261 JLINK_WriteReg(MSP, 0x20001000)  returns 0x00 (0000ms, 0771ms total)
T12EC 001:261 JLINK_WriteReg(PSP, 0x20001000)  returns 0x00 (0000ms, 0771ms total)
T12EC 001:261 JLINK_WriteReg(CFBP, 0x00000000)  returns 0x00 (0000ms, 0771ms total)
T12EC 001:261 JLINK_SetBPEx(Addr = 0x20000000, Type = 0xFFFFFFF2)  returns 0x0000000B (0000ms, 0771ms total)
T12EC 001:261 JLINK_Go() (0002ms, 0773ms total)
T12EC 001:263 JLINK_IsHalted()  returns FALSE (0001ms, 0774ms total)
T12EC 001:267 JLINK_IsHalted()  returns FALSE (0001ms, 0774ms total)
T12EC 001:269 JLINK_IsHalted()  returns FALSE (0000ms, 0773ms total)
T12EC 001:271 JLINK_IsHalted()  returns FALSE (0000ms, 0773ms total)
T12EC 001:273 JLINK_IsHalted()  returns FALSE (0001ms, 0774ms total)
T12EC 001:276 JLINK_IsHalted()  returns FALSE (0000ms, 0773ms total)
T12EC 001:278 JLINK_IsHalted()  returns FALSE (0000ms, 0773ms total)
T12EC 001:281 JLINK_IsHalted()  returns FALSE (0000ms, 0773ms total)
T12EC 001:283 JLINK_IsHalted()  returns FALSE (0000ms, 0773ms total)
T12EC 001:285 JLINK_IsHalted()  returns FALSE (0000ms, 0773ms total)
T12EC 001:287 JLINK_IsHalted()  returns FALSE (0000ms, 0773ms total)
T12EC 001:289 JLINK_IsHalted()  returns FALSE (0000ms, 0773ms total)
T12EC 001:291 JLINK_IsHalted()  returns FALSE (0000ms, 0773ms total)
T12EC 001:293 JLINK_IsHalted()  returns FALSE (0000ms, 0773ms total)
T12EC 001:295 JLINK_IsHalted() -- CPU_ReadMem(2 bytes @ 0x20000000)  returns TRUE (0003ms, 0776ms total)
T12EC 001:299 JLINK_ReadReg(R15 (PC))  returns 0x20000000 (0000ms, 0773ms total)
T12EC 001:299 JLINK_ClrBPEx(BPHandle = 0x0000000B)  returns 0x00 (0000ms, 0773ms total)
T12EC 001:299 JLINK_ReadReg(R0)  returns 0x00000000 (0000ms, 0773ms total)
T12EC 001:299 JLINK_WriteMem(0x20000164, 0x0400 Bytes, ...) - Data: 20 46 01 F0 7D FB 01 F0 7E FB 01 F0 81 FB 70 BD ... -- CPU_WriteMem(1024 bytes @ 0x20000164)  returns 0x400 (0013ms, 0786ms total)
T12EC 001:312 JLINK_WriteReg(R0, 0x08001C00)  returns 0x00 (0000ms, 0786ms total)
T12EC 001:312 JLINK_WriteReg(R1, 0x00000400)  returns 0x00 (0000ms, 0786ms total)
T12EC 001:312 JLINK_WriteReg(R2, 0x20000164)  returns 0x00 (0000ms, 0786ms total)
T12EC 001:312 JLINK_WriteReg(R3, 0x00000000)  returns 0x00 (0000ms, 0786ms total)
T12EC 001:312 JLINK_WriteReg(R4, 0x00000000)  returns 0x00 (0000ms, 0786ms total)
T12EC 001:312 JLINK_WriteReg(R5, 0x00000000)  returns 0x00 (0000ms, 0786ms total)
T12EC 001:312 JLINK_WriteReg(R6, 0x00000000)  returns 0x00 (0000ms, 0786ms total)
T12EC 001:312 JLINK_WriteReg(R7, 0x00000000)  returns 0x00 (0000ms, 0786ms total)
T12EC 001:312 JLINK_WriteReg(R8, 0x00000000)  returns 0x00 (0000ms, 0786ms total)
T12EC 001:312 JLINK_WriteReg(R9, 0x20000160)  returns 0x00 (0000ms, 0786ms total)
T12EC 001:312 JLINK_WriteReg(R10, 0x00000000)  returns 0x00 (0000ms, 0786ms total)
T12EC 001:312 JLINK_WriteReg(R11, 0x00000000)  returns 0x00 (0000ms, 0786ms total)
T12EC 001:312 JLINK_WriteReg(R12, 0x00000000)  returns 0x00 (0001ms, 0787ms total)
T12EC 001:313 JLINK_WriteReg(R13 (SP), 0x20001000)  returns 0x00 (0000ms, 0787ms total)
T12EC 001:313 JLINK_WriteReg(R14, 0x20000001)  returns 0x00 (0000ms, 0787ms total)
T12EC 001:313 JLINK_WriteReg(R15 (PC), 0x200000F4)  returns 0x00 (0000ms, 0787ms total)
T12EC 001:313 JLINK_WriteReg(XPSR, 0x01000000)  returns 0x00 (0000ms, 0787ms total)
T12EC 001:313 JLINK_WriteReg(MSP, 0x20001000)  returns 0x00 (0000ms, 0787ms total)
T12EC 001:313 JLINK_WriteReg(PSP, 0x20001000)  returns 0x00 (0000ms, 0787ms total)
T12EC 001:313 JLINK_WriteReg(CFBP, 0x00000000)  returns 0x00 (0000ms, 0787ms total)
T12EC 001:313 JLINK_SetBPEx(Addr = 0x20000000, Type = 0xFFFFFFF2)  returns 0x0000000C (0000ms, 0787ms total)
T12EC 001:313 JLINK_Go() (0002ms, 0789ms total)
T12EC 001:315 JLINK_IsHalted()  returns FALSE (0000ms, 0789ms total)
T12EC 001:317 JLINK_IsHalted()  returns FALSE (0000ms, 0789ms total)
T12EC 001:319 JLINK_IsHalted()  returns FALSE (0000ms, 0789ms total)
T12EC 001:321 JLINK_IsHalted()  returns FALSE (0000ms, 0789ms total)
T12EC 001:323 JLINK_IsHalted()  returns FALSE (0000ms, 0789ms total)
T12EC 001:325 JLINK_IsHalted()  returns FALSE (0000ms, 0789ms total)
T12EC 001:327 JLINK_IsHalted()  returns FALSE (0000ms, 0789ms total)
T12EC 001:329 JLINK_IsHalted()  returns FALSE (0000ms, 0789ms total)
T12EC 001:331 JLINK_IsHalted()  returns FALSE (0000ms, 0789ms total)
T12EC 001:341 JLINK_IsHalted()  returns FALSE (0000ms, 0789ms total)
T12EC 001:345 JLINK_IsHalted()  returns FALSE (0001ms, 0790ms total)
T12EC 001:347 JLINK_IsHalted() -- CPU_ReadMem(2 bytes @ 0x20000000)  returns TRUE (0004ms, 0793ms total)
T12EC 001:351 JLINK_ReadReg(R15 (PC))  returns 0x20000000 (0000ms, 0789ms total)
T12EC 001:351 JLINK_ClrBPEx(BPHandle = 0x0000000C)  returns 0x00 (0000ms, 0789ms total)
T12EC 001:351 JLINK_ReadReg(R0)  returns 0x00000000 (0000ms, 0789ms total)
T12EC 001:352 JLINK_WriteMem(0x20000164, 0x0400 Bytes, ...) - Data: 11 FB 2E E0 BD 48 84 42 08 D1 01 21 20 20 00 F0 ... -- CPU_WriteMem(1024 bytes @ 0x20000164)  returns 0x400 (0013ms, 0802ms total)
T12EC 001:365 JLINK_WriteReg(R0, 0x08002000)  returns 0x00 (0000ms, 0802ms total)
T12EC 001:365 JLINK_WriteReg(R1, 0x00000400)  returns 0x00 (0000ms, 0802ms total)
T12EC 001:365 JLINK_WriteReg(R2, 0x20000164)  returns 0x00 (0000ms, 0802ms total)
T12EC 001:365 JLINK_WriteReg(R3, 0x00000000)  returns 0x00 (0000ms, 0802ms total)
T12EC 001:365 JLINK_WriteReg(R4, 0x00000000)  returns 0x00 (0000ms, 0802ms total)
T12EC 001:365 JLINK_WriteReg(R5, 0x00000000)  returns 0x00 (0000ms, 0802ms total)
T12EC 001:365 JLINK_WriteReg(R6, 0x00000000)  returns 0x00 (0000ms, 0802ms total)
T12EC 001:365 JLINK_WriteReg(R7, 0x00000000)  returns 0x00 (0000ms, 0802ms total)
T12EC 001:365 JLINK_WriteReg(R8, 0x00000000)  returns 0x00 (0000ms, 0802ms total)
T12EC 001:365 JLINK_WriteReg(R9, 0x20000160)  returns 0x00 (0000ms, 0802ms total)
T12EC 001:365 JLINK_WriteReg(R10, 0x00000000)  returns 0x00 (0000ms, 0802ms total)
T12EC 001:365 JLINK_WriteReg(R11, 0x00000000)  returns 0x00 (0000ms, 0802ms total)
T12EC 001:365 JLINK_WriteReg(R12, 0x00000000)  returns 0x00 (0000ms, 0802ms total)
T12EC 001:365 JLINK_WriteReg(R13 (SP), 0x20001000)  returns 0x00 (0000ms, 0802ms total)
T12EC 001:365 JLINK_WriteReg(R14, 0x20000001)  returns 0x00 (0000ms, 0802ms total)
T12EC 001:365 JLINK_WriteReg(R15 (PC), 0x200000F4)  returns 0x00 (0000ms, 0802ms total)
T12EC 001:365 JLINK_WriteReg(XPSR, 0x01000000)  returns 0x00 (0000ms, 0802ms total)
T12EC 001:365 JLINK_WriteReg(MSP, 0x20001000)  returns 0x00 (0000ms, 0802ms total)
T12EC 001:365 JLINK_WriteReg(PSP, 0x20001000)  returns 0x00 (0000ms, 0802ms total)
T12EC 001:365 JLINK_WriteReg(CFBP, 0x00000000)  returns 0x00 (0000ms, 0802ms total)
T12EC 001:365 JLINK_SetBPEx(Addr = 0x20000000, Type = 0xFFFFFFF2)  returns 0x0000000D (0000ms, 0802ms total)
T12EC 001:365 JLINK_Go() (0003ms, 0805ms total)
T12EC 001:368 JLINK_IsHalted()  returns FALSE (0000ms, 0805ms total)
T12EC 001:371 JLINK_IsHalted()  returns FALSE (0000ms, 0805ms total)
T12EC 001:373 JLINK_IsHalted()  returns FALSE (0000ms, 0805ms total)
T12EC 001:376 JLINK_IsHalted()  returns FALSE (0000ms, 0806ms total)
T12EC 001:378 JLINK_IsHalted()  returns FALSE (0001ms, 0807ms total)
T12EC 001:380 JLINK_IsHalted()  returns FALSE (0000ms, 0806ms total)
T12EC 001:382 JLINK_IsHalted()  returns FALSE (0000ms, 0806ms total)
T12EC 001:384 JLINK_IsHalted()  returns FALSE (0000ms, 0806ms total)
T12EC 001:386 JLINK_IsHalted()  returns FALSE (0000ms, 0806ms total)
T12EC 001:388 JLINK_IsHalted()  returns FALSE (0001ms, 0808ms total)
T12EC 001:390 JLINK_IsHalted()  returns FALSE (0000ms, 0807ms total)
T12EC 001:392 JLINK_IsHalted()  returns FALSE (0000ms, 0808ms total)
T12EC 001:394 JLINK_IsHalted()  returns FALSE (0000ms, 0808ms total)
T12EC 001:396 JLINK_IsHalted()  returns FALSE (0001ms, 0809ms total)
T12EC 001:398 JLINK_IsHalted()  returns FALSE (0000ms, 0808ms total)
T12EC 001:400 JLINK_IsHalted() -- CPU_ReadMem(2 bytes @ 0x20000000)  returns TRUE (0004ms, 0812ms total)
T12EC 001:404 JLINK_ReadReg(R15 (PC))  returns 0x20000000 (0000ms, 0808ms total)
T12EC 001:404 JLINK_ClrBPEx(BPHandle = 0x0000000D)  returns 0x00 (0000ms, 0808ms total)
T12EC 001:404 JLINK_ReadReg(R0)  returns 0x00000000 (0000ms, 0808ms total)
T12EC 001:405 JLINK_WriteMem(0x20000164, 0x0400 Bytes, ...) - Data: 01 24 00 E0 00 24 20 46 38 BD 01 46 00 20 A1 4A ... -- CPU_WriteMem(1024 bytes @ 0x20000164)  returns 0x400 (0013ms, 0821ms total)
T12EC 001:418 JLINK_WriteReg(R0, 0x08002400)  returns 0x00 (0000ms, 0821ms total)
T12EC 001:418 JLINK_WriteReg(R1, 0x00000400)  returns 0x00 (0000ms, 0821ms total)
T12EC 001:418 JLINK_WriteReg(R2, 0x20000164)  returns 0x00 (0000ms, 0821ms total)
T12EC 001:418 JLINK_WriteReg(R3, 0x00000000)  returns 0x00 (0000ms, 0821ms total)
T12EC 001:418 JLINK_WriteReg(R4, 0x00000000)  returns 0x00 (0000ms, 0821ms total)
T12EC 001:418 JLINK_WriteReg(R5, 0x00000000)  returns 0x00 (0000ms, 0821ms total)
T12EC 001:418 JLINK_WriteReg(R6, 0x00000000)  returns 0x00 (0000ms, 0821ms total)
T12EC 001:418 JLINK_WriteReg(R7, 0x00000000)  returns 0x00 (0000ms, 0821ms total)
T12EC 001:418 JLINK_WriteReg(R8, 0x00000000)  returns 0x00 (0000ms, 0821ms total)
T12EC 001:418 JLINK_WriteReg(R9, 0x20000160)  returns 0x00 (0000ms, 0821ms total)
T12EC 001:418 JLINK_WriteReg(R10, 0x00000000)  returns 0x00 (0000ms, 0821ms total)
T12EC 001:418 JLINK_WriteReg(R11, 0x00000000)  returns 0x00 (0000ms, 0821ms total)
T12EC 001:418 JLINK_WriteReg(R12, 0x00000000)  returns 0x00 (0000ms, 0821ms total)
T12EC 001:418 JLINK_WriteReg(R13 (SP), 0x20001000)  returns 0x00 (0000ms, 0821ms total)
T12EC 001:418 JLINK_WriteReg(R14, 0x20000001)  returns 0x00 (0000ms, 0821ms total)
T12EC 001:418 JLINK_WriteReg(R15 (PC), 0x200000F4)  returns 0x00 (0000ms, 0821ms total)
T12EC 001:418 JLINK_WriteReg(XPSR, 0x01000000)  returns 0x00 (0000ms, 0821ms total)
T12EC 001:418 JLINK_WriteReg(MSP, 0x20001000)  returns 0x00 (0001ms, 0822ms total)
T12EC 001:419 JLINK_WriteReg(PSP, 0x20001000)  returns 0x00 (0000ms, 0822ms total)
T12EC 001:419 JLINK_WriteReg(CFBP, 0x00000000)  returns 0x00 (0000ms, 0822ms total)
T12EC 001:419 JLINK_SetBPEx(Addr = 0x20000000, Type = 0xFFFFFFF2)  returns 0x0000000E (0000ms, 0822ms total)
T12EC 001:419 JLINK_Go() (0002ms, 0824ms total)
T12EC 001:421 JLINK_IsHalted()  returns FALSE (0000ms, 0824ms total)
T12EC 001:423 JLINK_IsHalted()  returns FALSE (0000ms, 0824ms total)
T12EC 001:426 JLINK_IsHalted()  returns FALSE (0000ms, 0824ms total)
T12EC 001:428 JLINK_IsHalted()  returns FALSE (0001ms, 0825ms total)
T12EC 001:430 JLINK_IsHalted()  returns FALSE (0000ms, 0824ms total)
T12EC 001:432 JLINK_IsHalted()  returns FALSE (0000ms, 0824ms total)
T12EC 001:434 JLINK_IsHalted()  returns FALSE (0001ms, 0825ms total)
T12EC 001:446 JLINK_IsHalted()  returns FALSE (0001ms, 0825ms total)
T12EC 001:448 JLINK_IsHalted()  returns FALSE (0000ms, 0824ms total)
T12EC 001:450 JLINK_IsHalted()  returns FALSE (0000ms, 0824ms total)
T12EC 001:452 JLINK_IsHalted() -- CPU_ReadMem(2 bytes @ 0x20000000)  returns TRUE (0004ms, 0828ms total)
T12EC 001:456 JLINK_ReadReg(R15 (PC))  returns 0x20000000 (0000ms, 0824ms total)
T12EC 001:456 JLINK_ClrBPEx(BPHandle = 0x0000000E)  returns 0x00 (0000ms, 0824ms total)
T12EC 001:456 JLINK_ReadReg(R0)  returns 0x00000000 (0000ms, 0824ms total)
T12EC 001:457 JLINK_WriteMem(0x20000164, 0x0400 Bytes, ...) - Data: F1 F0 00 F0 0F 00 04 43 2C 81 06 B0 BD E8 F0 87 ... -- CPU_WriteMem(1024 bytes @ 0x20000164)  returns 0x400 (0013ms, 0837ms total)
T12EC 001:470 JLINK_WriteReg(R0, 0x08002800)  returns 0x00 (0000ms, 0837ms total)
T12EC 001:470 JLINK_WriteReg(R1, 0x00000400)  returns 0x00 (0000ms, 0837ms total)
